T34AC 000:007.867   SEGGER J-Link V8.10g Log File
T34AC 000:008.020   DLL Compiled: Nov 14 2024 08:38:33
T34AC 000:008.027   Logging started @ 2024-11-29 14:01
T34AC 000:008.033   Process: C:\Users\tgspo\AppData\Local\Keil_v5\UV4\UV4.exe
T34AC 000:008.043 - 8.039ms 
T34AC 000:008.053 JLINK_SetWarnOutHandler(...)
T34AC 000:008.058 - 0.007ms 
T34AC 000:008.066 JLINK_OpenEx(...)
T34AC 000:018.688   Firmware: J-Link V11 compiled Oct  9 2024 10:52:20
T34AC 000:021.380   Firmware: J-Link V11 compiled Oct  9 2024 10:52:20
T34AC 000:043.316   Hardware: V11.00
T34AC 000:043.330   S/N: 601012352
T34AC 000:043.338   OEM: SEGGER
T34AC 000:043.346   Feature(s): RDI, FlashBP, FlashDL, JFlash, GDB
T34AC 000:046.318   Bootloader: (FW returned invalid version)
T34AC 000:055.359   USB speed mode: High speed (480 MBit/s)
T34AC 000:055.383   Active J-Link Eco level: 3 (https://wiki.segger.com/J-Link_Eco)
T34AC 000:056.542   TELNET listener socket opened on port 19021
T34AC 000:056.692   WEBSRV WEBSRV_Init(): Starting webserver thread(s)
T34AC 000:056.804   WEBSRV Failed to put socket into listener state (port 19080)
T34AC 000:056.885   WEBSRV Webserver running on local port 19081
T34AC 000:057.046   Looking for J-Link GUI Server exe at: C:\Users\tgspo\AppData\Local\Keil_v5\ARM\Segger\JLinkGUIServer.exe
T34AC 000:057.172   Looking for J-Link GUI Server exe at: C:\Program Files\SEGGER\JLink\JLinkGUIServer.exe
T34AC 000:057.210   Forking J-Link GUI Server: C:\Program Files\SEGGER\JLink\JLinkGUIServer.exe
T34AC 000:061.908   J-Link GUI Server info: "J-Link GUI server V8.10g "
T34AC 000:062.516 - 54.441ms returns "O.K."
T34AC 000:062.566 JLINK_GetEmuCaps()
T34AC 000:062.585 - 0.015ms returns 0xB9FF7BBF
T34AC 000:062.600 JLINK_TIF_GetAvailable(...)
T34AC 000:070.784 - 8.180ms 
T34AC 000:070.839 JLINK_SetErrorOutHandler(...)
T34AC 000:070.847 - 0.008ms 
T34AC 000:070.913 JLINK_ExecCommand("ProjectFile = "C:\Github\STM32_learing.github.io\template_1\MDK-ARM\JLinkSettings.ini"", ...). 
T34AC 000:093.332   Ref file found at: C:\Users\tgspo\AppData\Local\Keil_v5\ARM\Segger\JLinkDevices.ref
T34AC 000:093.540   REF file references invalid XML file: C:\Program Files\SEGGER\JLink\JLinkDevices.xml
T34AC 000:095.188 - 24.276ms returns 0x00
T34AC 000:099.162 JLINK_ExecCommand("Device = STM32F411CEUx", ...). 
T34AC 000:103.044   Device "STM32F411CE" selected.
T34AC 000:103.425 - 4.238ms returns 0x00
T34AC 000:103.459 JLINK_ExecCommand("DisableConnectionTimeout", ...). 
T34AC 000:103.489   ERROR: Unknown command
T34AC 000:103.497 - 0.014ms returns 0x01
T34AC 000:103.503 JLINK_GetHardwareVersion()
T34AC 000:103.509 - 0.005ms returns 110000
T34AC 000:103.515 JLINK_GetDLLVersion()
T34AC 000:103.520 - 0.004ms returns 81007
T34AC 000:103.527 JLINK_GetOEMString(...)
T34AC 000:103.534 JLINK_GetFirmwareString(...)
T34AC 000:103.539 - 0.006ms 
T34AC 000:111.264 JLINK_GetDLLVersion()
T34AC 000:111.288 - 0.024ms returns 81007
T34AC 000:111.294 JLINK_GetCompileDateTime()
T34AC 000:111.298 - 0.004ms 
T34AC 000:112.875 JLINK_GetFirmwareString(...)
T34AC 000:112.886 - 0.011ms 
T34AC 000:118.485 JLINK_GetHardwareVersion()
T34AC 000:118.511 - 0.025ms returns 110000
T34AC 000:121.102 JLINK_GetSN()
T34AC 000:121.114 - 0.011ms returns 601012352
T34AC 000:122.998 JLINK_GetOEMString(...)
T34AC 000:127.737 JLINK_TIF_Select(JLINKARM_TIF_SWD)
T34AC 000:131.004 - 3.265ms returns 0x00
T34AC 000:131.060 JLINK_HasError()
T34AC 000:131.094 JLINK_SetSpeed(5000)
T34AC 000:131.746 - 0.651ms 
T34AC 000:131.806 JLINK_GetId()
T34AC 000:135.143   InitTarget() start
T34AC 000:135.168    J-Link Script File: Executing InitTarget()
T34AC 000:139.402   SWD selected. Executing JTAG -> SWD switching sequence.
T34AC 000:147.107   DAP initialized successfully.
T34AC 000:161.763   InitTarget() end - Took 20.9ms
T34AC 000:168.133   Found SW-DP with ID 0x2BA01477
T34AC 000:174.753   DPIDR: 0x2BA01477
T34AC 000:178.333   CoreSight SoC-400 or earlier
T34AC 000:183.581   Scanning AP map to find all available APs
T34AC 000:191.110   AP[1]: Stopped AP scan as end of AP map has been reached
T34AC 000:195.078   AP[0]: AHB-AP (IDR: 0x24770011, ADDR: 0x00000000)
T34AC 000:200.408   Iterating through AP map to find AHB-AP to use
T34AC 000:206.878   AP[0]: Core found
T34AC 000:210.568   AP[0]: AHB-AP ROM base: 0xE00FF000
T34AC 000:215.824   CPUID register: 0x410FC241. Implementer code: 0x41 (ARM)
T34AC 000:218.974   Found Cortex-M4 r0p1, Little endian.
T34AC 000:220.104   -- Max. mem block: 0x00003888
T34AC 000:221.819   CPU_ReadMem(4 bytes @ 0xE000EDF0)
T34AC 000:222.469   CPU_ReadMem(4 bytes @ 0xE0002000)
T34AC 000:226.727   FPUnit: 6 code (BP) slots and 2 literal slots
T34AC 000:226.756   CPU_ReadMem(4 bytes @ 0xE000EDFC)
T34AC 000:227.517   CPU_ReadMem(4 bytes @ 0xE0001000)
T34AC 000:228.211   CPU_WriteMem(4 bytes @ 0xE0001000)
T34AC 000:228.931   CPU_ReadMem(4 bytes @ 0xE000ED88)
T34AC 000:229.680   CPU_WriteMem(4 bytes @ 0xE000ED88)
T34AC 000:230.424   CPU_ReadMem(4 bytes @ 0xE000ED88)
T34AC 000:231.105   CPU_WriteMem(4 bytes @ 0xE000ED88)
T34AC 000:234.825   CoreSight components:
T34AC 000:236.926   ROMTbl[0] @ E00FF000
T34AC 000:236.952   CPU_ReadMem(64 bytes @ 0xE00FF000)
T34AC 000:238.052   CPU_ReadMem(32 bytes @ 0xE000EFE0)
T34AC 000:241.337   [0][0]: E000E000 CID B105E00D PID 000BB00C SCS-M7
T34AC 000:241.357   CPU_ReadMem(32 bytes @ 0xE0001FE0)
T34AC 000:245.694   [0][1]: E0001000 CID B105E00D PID 003BB002 DWT
T34AC 000:245.729   CPU_ReadMem(32 bytes @ 0xE0002FE0)
T34AC 000:251.477   [0][2]: E0002000 CID B105E00D PID 002BB003 FPB
T34AC 000:251.512   CPU_ReadMem(32 bytes @ 0xE0000FE0)
T34AC 000:255.245   [0][3]: E0000000 CID B105E00D PID 003BB001 ITM
T34AC 000:255.263   CPU_ReadMem(32 bytes @ 0xE0040FE0)
T34AC 000:260.820   [0][4]: E0040000 CID B105900D PID 000BB9A1 TPIU
T34AC 000:260.854   CPU_ReadMem(32 bytes @ 0xE0041FE0)
T34AC 000:266.385   [0][5]: E0041000 CID B105900D PID 000BB925 ETM
T34AC 000:267.401 - 135.594ms returns 0x2BA01477
T34AC 000:267.466 JLINK_GetDLLVersion()
T34AC 000:267.474 - 0.007ms returns 81007
T34AC 000:267.481 JLINK_CORE_GetFound()
T34AC 000:267.487 - 0.005ms returns 0xE0000FF
T34AC 000:267.494 JLINK_GetDebugInfo(0x100 = JLINKARM_ROM_TABLE_ADDR_INDEX)
T34AC 000:267.501   Value=0xE00FF000
T34AC 000:267.510 - 0.015ms returns 0
T34AC 000:270.426 JLINK_GetDebugInfo(0x100 = JLINKARM_ROM_TABLE_ADDR_INDEX)
T34AC 000:270.437   Value=0xE00FF000
T34AC 000:270.444 - 0.018ms returns 0
T34AC 000:270.450 JLINK_GetDebugInfo(0x101 = JLINKARM_DEBUG_INFO_ETM_ADDR_INDEX)
T34AC 000:270.454   Value=0xE0041000
T34AC 000:270.460 - 0.010ms returns 0
T34AC 000:270.466 JLINK_ReadMemEx(0xE0041FD0, 0x20 Bytes, Flags = 0x02000004)
T34AC 000:270.495   CPU_ReadMem(32 bytes @ 0xE0041FD0)
T34AC 000:282.484   Data:  04 00 00 00 00 00 00 00 00 00 00 00 00 00 00 00 ...
T34AC 000:282.524 - 12.058ms returns 32 (0x20)
T34AC 000:282.598 JLINK_GetDebugInfo(0x102 = JLINKARM_DEBUG_INFO_MTB_ADDR_INDEX)
T34AC 000:282.607   Value=0x00000000
T34AC 000:282.635 - 0.037ms returns 0
T34AC 000:282.642 JLINK_GetDebugInfo(0x103 = JLINKARM_DEBUG_INFO_TPIU_ADDR_INDEX)
T34AC 000:282.647   Value=0xE0040000
T34AC 000:282.655 - 0.013ms returns 0
T34AC 000:282.682 JLINK_GetDebugInfo(0x104 = JLINKARM_DEBUG_INFO_ITM_ADDR_INDEX)
T34AC 000:282.688   Value=0xE0000000
T34AC 000:282.697 - 0.014ms returns 0
T34AC 000:282.704 JLINK_GetDebugInfo(0x105 = JLINKARM_DEBUG_INFO_DWT_ADDR_INDEX)
T34AC 000:282.710   Value=0xE0001000
T34AC 000:282.718 - 0.014ms returns 0
T34AC 000:282.726 JLINK_GetDebugInfo(0x106 = JLINKARM_DEBUG_INFO_FPB_ADDR_INDEX)
T34AC 000:282.731   Value=0xE0002000
T34AC 000:282.740 - 0.014ms returns 0
T34AC 000:282.763 JLINK_GetDebugInfo(0x107 = JLINKARM_DEBUG_INFO_NVIC_ADDR_INDEX)
T34AC 000:282.768   Value=0xE000E000
T34AC 000:282.776 - 0.014ms returns 0
T34AC 000:282.783 JLINK_GetDebugInfo(0x10C = JLINKARM_DEBUG_INFO_DBG_ADDR_INDEX)
T34AC 000:282.789   Value=0xE000EDF0
T34AC 000:282.797 - 0.013ms returns 0
T34AC 000:282.803 JLINK_GetDebugInfo(0x01 = Unknown)
T34AC 000:282.809   Value=0x00000001
T34AC 000:282.817 - 0.013ms returns 0
T34AC 000:282.828 JLINK_ReadMemU32(0xE000ED00, 0x1 Items)
T34AC 000:282.856   CPU_ReadMem(4 bytes @ 0xE000ED00)
T34AC 000:283.803   Data:  41 C2 0F 41
T34AC 000:283.825   Debug reg: CPUID
T34AC 000:283.835 - 1.006ms returns 1 (0x1)
T34AC 000:283.900 JLINK_GetDebugInfo(0x10F = JLINKARM_DEBUG_INFO_HAS_CORTEX_M_SECURITY_EXT_INDEX)
T34AC 000:283.907   Value=0x00000000
T34AC 000:283.935 - 0.036ms returns 0
T34AC 000:283.942 JLINK_HasError()
T34AC 000:283.950 JLINK_SetResetType(JLINKARM_CM3_RESET_TYPE_NORMAL)
T34AC 000:283.956 - 0.006ms returns JLINKARM_CM3_RESET_TYPE_NORMAL
T34AC 000:283.963 JLINK_Reset()
T34AC 000:284.894   JLINK_GetResetTypeDesc
T34AC 000:284.925   - 0.030ms 
T34AC 000:287.916   Reset type: NORMAL (https://wiki.segger.com/J-Link_Reset_Strategies)
T34AC 000:287.937   CPU is running
T34AC 000:287.948   CPU_WriteMem(4 bytes @ 0xE000EDF0)
T34AC 000:288.961   CPU is running
T34AC 000:288.989   CPU_WriteMem(4 bytes @ 0xE000EDFC)
T34AC 000:292.485   Reset: Halt core after reset via DEMCR.VC_CORERESET.
T34AC 000:297.303   Reset: Reset device via AIRCR.SYSRESETREQ.
T34AC 000:297.349   CPU is running
T34AC 000:297.365   CPU_WriteMem(4 bytes @ 0xE000ED0C)
T34AC 000:354.149   CPU_ReadMem(4 bytes @ 0xE000EDF0)
T34AC 000:355.095   CPU_ReadMem(4 bytes @ 0xE000EDF0)
T34AC 000:360.517   CPU_WriteMem(4 bytes @ 0xE000EDFC)
T34AC 000:368.179   CPU_ReadMem(4 bytes @ 0xE000EDF0)
T34AC 000:373.618   CPU_WriteMem(4 bytes @ 0xE0002000)
T34AC 000:374.903   CPU_ReadMem(4 bytes @ 0xE000EDFC)
T34AC 000:375.966   CPU_ReadMem(4 bytes @ 0xE0001000)
T34AC 000:377.334 - 93.370ms 
T34AC 000:377.377 JLINK_Halt()
T34AC 000:377.401 - 0.023ms returns 0x00
T34AC 000:377.428 JLINK_ReadMemU32(0xE000EDF0, 0x1 Items)
T34AC 000:377.449   CPU_ReadMem(4 bytes @ 0xE000EDF0)
T34AC 000:379.195   Data:  03 00 03 00
T34AC 000:379.214   Debug reg: DHCSR
T34AC 000:379.223 - 1.795ms returns 1 (0x1)
T34AC 000:379.297 JLINK_WriteU32(0xE000EDF0, 0xA05F0003)
T34AC 000:379.305   Debug reg: DHCSR
T34AC 000:379.654   CPU_WriteMem(4 bytes @ 0xE000EDF0)
T34AC 000:394.061 - 14.769ms returns 0 (0x00000000)
T34AC 000:394.156 JLINK_WriteU32(0xE000EDFC, 0x01000000)
T34AC 000:394.164   Debug reg: DEMCR
T34AC 000:394.211   CPU_WriteMem(4 bytes @ 0xE000EDFC)
T34AC 000:395.697 - 1.540ms returns 0 (0x00000000)
T34AC 000:414.597 JLINK_GetHWStatus(...)
T34AC 000:415.569 - 0.970ms returns 0
T34AC 000:423.452 JLINK_GetNumBPUnits(Type = 0xFFFFFF00)
T34AC 000:423.477 - 0.025ms returns 0x06
T34AC 000:423.482 JLINK_GetNumBPUnits(Type = 0xF0)
T34AC 000:423.487 - 0.004ms returns 0x2000
T34AC 000:423.492 JLINK_GetNumWPUnits()
T34AC 000:423.496 - 0.004ms returns 4
T34AC 000:433.319 JLINK_GetSpeed()
T34AC 000:433.346 - 0.026ms returns 5000
T34AC 000:438.784 JLINK_ReadMemU32(0xE000E004, 0x1 Items)
T34AC 000:438.832   CPU_ReadMem(4 bytes @ 0xE000E004)
T34AC 000:440.586   Data:  02 00 00 00
T34AC 000:440.608 - 1.823ms returns 1 (0x1)
T34AC 000:440.669 JLINK_ReadMemU32(0xE000E004, 0x1 Items)
T34AC 000:440.692   CPU_ReadMem(4 bytes @ 0xE000E004)
T34AC 000:441.573   Data:  02 00 00 00
T34AC 000:441.587 - 0.917ms returns 1 (0x1)
T34AC 000:441.626 JLINK_WriteMemEx(0xE0001000, 0x0000001C Bytes, Flags = 0x02000004)
T34AC 000:441.648   Data:  01 00 00 00 00 00 00 00 00 00 00 00 00 00 00 00 ...
T34AC 000:441.669   CPU_WriteMem(28 bytes @ 0xE0001000)
T34AC 000:442.718 - 1.092ms returns 0x1C
T34AC 000:442.753 JLINK_Halt()
T34AC 000:442.760 - 0.006ms returns 0x00
T34AC 000:442.766 JLINK_IsHalted()
T34AC 000:442.772 - 0.005ms returns TRUE
T34AC 000:449.426 JLINK_WriteMem(0x20000000, 0x184 Bytes, ...)
T34AC 000:449.442   Data:  00 BE 0A E0 0D 78 2D 06 68 40 08 24 40 00 00 D3 ...
T34AC 000:449.651   CPU_WriteMem(388 bytes @ 0x20000000)
T34AC 000:451.676 - 2.250ms returns 0x184
T34AC 000:451.901 JLINK_HasError()
T34AC 000:451.911 JLINK_WriteReg(R0, 0x08000000)
T34AC 000:451.946 - 0.034ms returns 0
T34AC 000:451.953 JLINK_WriteReg(R1, 0x017D7840)
T34AC 000:451.965 - 0.012ms returns 0
T34AC 000:451.972 JLINK_WriteReg(R2, 0x00000001)
T34AC 000:451.989 - 0.017ms returns 0
T34AC 000:451.999 JLINK_WriteReg(R3, 0x00000000)
T34AC 000:452.011 - 0.012ms returns 0
T34AC 000:452.018 JLINK_WriteReg(R4, 0x00000000)
T34AC 000:452.030 - 0.012ms returns 0
T34AC 000:452.052 JLINK_WriteReg(R5, 0x00000000)
T34AC 000:452.087 - 0.035ms returns 0
T34AC 000:452.094 JLINK_WriteReg(R6, 0x00000000)
T34AC 000:452.106 - 0.011ms returns 0
T34AC 000:452.112 JLINK_WriteReg(R7, 0x00000000)
T34AC 000:452.124 - 0.011ms returns 0
T34AC 000:452.137 JLINK_WriteReg(R8, 0x00000000)
T34AC 000:452.164 - 0.033ms returns 0
T34AC 000:452.170 JLINK_WriteReg(R9, 0x20000180)
T34AC 000:452.180 - 0.010ms returns 0
T34AC 000:452.186 JLINK_WriteReg(R10, 0x00000000)
T34AC 000:452.196 - 0.010ms returns 0
T34AC 000:452.202 JLINK_WriteReg(R11, 0x00000000)
T34AC 000:452.212 - 0.010ms returns 0
T34AC 000:452.218 JLINK_WriteReg(R12, 0x00000000)
T34AC 000:452.228 - 0.010ms returns 0
T34AC 000:452.234 JLINK_WriteReg(R13 (SP), 0x20001000)
T34AC 000:452.246 - 0.011ms returns 0
T34AC 000:452.251 JLINK_WriteReg(R14, 0x20000001)
T34AC 000:452.262 - 0.010ms returns 0
T34AC 000:452.269 JLINK_WriteReg(R15 (PC), 0x20000054)
T34AC 000:452.383 - 0.115ms returns 0
T34AC 000:452.389 JLINK_WriteReg(XPSR, 0x01000000)
T34AC 000:452.400 - 0.010ms returns 0
T34AC 000:452.406 JLINK_WriteReg(MSP, 0x20001000)
T34AC 000:452.417 - 0.010ms returns 0
T34AC 000:452.422 JLINK_WriteReg(PSP, 0x20001000)
T34AC 000:452.433 - 0.010ms returns 0
T34AC 000:452.439 JLINK_WriteReg(CFBP, 0x00000000)
T34AC 000:452.449 - 0.010ms returns 0
T34AC 000:452.455 JLINK_SetBPEx(Addr = 0x20000000, Type = 0xFFFFFFF2)
T34AC 000:452.473   CPU_ReadMem(2 bytes @ 0x20000000)
T34AC 000:453.344 - 0.888ms returns 0x00000001
T34AC 000:453.376 JLINK_Go()
T34AC 000:453.392   CPU_WriteMem(2 bytes @ 0x20000000)
T34AC 000:454.223   CPU_ReadMem(4 bytes @ 0xE0001000)
T34AC 000:454.893   CPU_WriteMem(4 bytes @ 0xE0002008)
T34AC 000:454.927   CPU_WriteMem(4 bytes @ 0xE000200C)
T34AC 000:454.935   CPU_WriteMem(4 bytes @ 0xE0002010)
T34AC 000:454.943   CPU_WriteMem(4 bytes @ 0xE0002014)
T34AC 000:454.952   CPU_WriteMem(4 bytes @ 0xE0002018)
T34AC 000:454.975   CPU_WriteMem(4 bytes @ 0xE000201C)
T34AC 000:456.971   CPU_WriteMem(4 bytes @ 0xE0001004)
T34AC 000:464.830   Memory map 'after startup completion point' is active
T34AC 000:464.873 - 11.495ms 
T34AC 000:464.971 JLINK_IsHalted()
T34AC 000:468.541   CPU_ReadMem(2 bytes @ 0x20000000)
T34AC 000:469.394 - 4.421ms returns TRUE
T34AC 000:469.431 JLINK_ReadReg(R15 (PC))
T34AC 000:469.468 - 0.036ms returns 0x20000000
T34AC 000:469.495 JLINK_ClrBPEx(BPHandle = 0x00000001)
T34AC 000:469.511 - 0.016ms returns 0x00
T34AC 000:469.521 JLINK_ReadReg(R0)
T34AC 000:469.539 - 0.017ms returns 0x00000000
T34AC 000:471.440 JLINK_HasError()
T34AC 000:471.460 JLINK_WriteReg(R0, 0x08000000)
T34AC 000:471.493 - 0.032ms returns 0
T34AC 000:471.500 JLINK_WriteReg(R1, 0x00004000)
T34AC 000:471.538 - 0.038ms returns 0
T34AC 000:471.545 JLINK_WriteReg(R2, 0x000000FF)
T34AC 000:471.559 - 0.013ms returns 0
T34AC 000:471.566 JLINK_WriteReg(R3, 0x00000000)
T34AC 000:471.579 - 0.013ms returns 0
T34AC 000:471.586 JLINK_WriteReg(R4, 0x00000000)
T34AC 000:471.615 - 0.028ms returns 0
T34AC 000:471.621 JLINK_WriteReg(R5, 0x00000000)
T34AC 000:471.774 - 0.152ms returns 0
T34AC 000:471.782 JLINK_WriteReg(R6, 0x00000000)
T34AC 000:471.795 - 0.013ms returns 0
T34AC 000:471.802 JLINK_WriteReg(R7, 0x00000000)
T34AC 000:471.815 - 0.012ms returns 0
T34AC 000:471.822 JLINK_WriteReg(R8, 0x00000000)
T34AC 000:471.836 - 0.014ms returns 0
T34AC 000:471.843 JLINK_WriteReg(R9, 0x20000180)
T34AC 000:471.856 - 0.012ms returns 0
T34AC 000:471.863 JLINK_WriteReg(R10, 0x00000000)
T34AC 000:471.876 - 0.013ms returns 0
T34AC 000:471.883 JLINK_WriteReg(R11, 0x00000000)
T34AC 000:471.896 - 0.012ms returns 0
T34AC 000:471.903 JLINK_WriteReg(R12, 0x00000000)
T34AC 000:471.933 - 0.030ms returns 0
T34AC 000:471.940 JLINK_WriteReg(R13 (SP), 0x20001000)
T34AC 000:471.954 - 0.013ms returns 0
T34AC 000:472.058 JLINK_WriteReg(R14, 0x20000001)
T34AC 000:472.077 - 0.019ms returns 0
T34AC 000:472.084 JLINK_WriteReg(R15 (PC), 0x20000020)
T34AC 000:472.097 - 0.013ms returns 0
T34AC 000:472.120 JLINK_WriteReg(XPSR, 0x01000000)
T34AC 000:472.153 - 0.032ms returns 0
T34AC 000:472.160 JLINK_WriteReg(MSP, 0x20001000)
T34AC 000:472.173 - 0.012ms returns 0
T34AC 000:472.180 JLINK_WriteReg(PSP, 0x20001000)
T34AC 000:472.192 - 0.012ms returns 0
T34AC 000:472.200 JLINK_WriteReg(CFBP, 0x00000000)
T34AC 000:472.212 - 0.012ms returns 0
T34AC 000:472.220 JLINK_SetBPEx(Addr = 0x20000000, Type = 0xFFFFFFF2)
T34AC 000:472.235 - 0.014ms returns 0x00000002
T34AC 000:472.242 JLINK_Go()
T34AC 000:472.384   CPU_ReadMem(4 bytes @ 0xE0001000)
T34AC 000:489.001 - 16.757ms 
T34AC 000:489.072 JLINK_IsHalted()
T34AC 000:492.796   CPU_ReadMem(2 bytes @ 0x20000000)
T34AC 000:493.565 - 4.492ms returns TRUE
T34AC 000:493.608 JLINK_ReadReg(R15 (PC))
T34AC 000:493.645 - 0.036ms returns 0x20000000
T34AC 000:493.671 JLINK_ClrBPEx(BPHandle = 0x00000002)
T34AC 000:493.684 - 0.013ms returns 0x00
T34AC 000:493.693 JLINK_ReadReg(R0)
T34AC 000:493.706 - 0.013ms returns 0x00000001
T34AC 000:493.730 JLINK_HasError()
T34AC 000:493.738 JLINK_WriteReg(R0, 0x08000000)
T34AC 000:493.751 - 0.012ms returns 0
T34AC 000:493.757 JLINK_WriteReg(R1, 0x00004000)
T34AC 000:493.769 - 0.012ms returns 0
T34AC 000:493.776 JLINK_WriteReg(R2, 0x000000FF)
T34AC 000:493.788 - 0.012ms returns 0
T34AC 000:493.795 JLINK_WriteReg(R3, 0x00000000)
T34AC 000:493.807 - 0.012ms returns 0
T34AC 000:493.813 JLINK_WriteReg(R4, 0x00000000)
T34AC 000:493.825 - 0.012ms returns 0
T34AC 000:493.832 JLINK_WriteReg(R5, 0x00000000)
T34AC 000:493.860 - 0.028ms returns 0
T34AC 000:493.865 JLINK_WriteReg(R6, 0x00000000)
T34AC 000:493.898 - 0.032ms returns 0
T34AC 000:493.905 JLINK_WriteReg(R7, 0x00000000)
T34AC 000:493.933 - 0.028ms returns 0
T34AC 000:493.941 JLINK_WriteReg(R8, 0x00000000)
T34AC 000:493.970 - 0.028ms returns 0
T34AC 000:493.992 JLINK_WriteReg(R9, 0x20000180)
T34AC 000:494.024 - 0.031ms returns 0
T34AC 000:494.031 JLINK_WriteReg(R10, 0x00000000)
T34AC 000:494.062 - 0.031ms returns 0
T34AC 000:494.086 JLINK_WriteReg(R11, 0x00000000)
T34AC 000:494.114 - 0.027ms returns 0
T34AC 000:494.140 JLINK_WriteReg(R12, 0x00000000)
T34AC 000:494.277 - 0.137ms returns 0
T34AC 000:494.284 JLINK_WriteReg(R13 (SP), 0x20001000)
T34AC 000:494.297 - 0.012ms returns 0
T34AC 000:494.303 JLINK_WriteReg(R14, 0x20000001)
T34AC 000:494.329 - 0.025ms returns 0
T34AC 000:494.354 JLINK_WriteReg(R15 (PC), 0x200000C0)
T34AC 000:494.366 - 0.012ms returns 0
T34AC 000:494.373 JLINK_WriteReg(XPSR, 0x01000000)
T34AC 000:494.385 - 0.012ms returns 0
T34AC 000:494.391 JLINK_WriteReg(MSP, 0x20001000)
T34AC 000:494.403 - 0.012ms returns 0
T34AC 000:494.409 JLINK_WriteReg(PSP, 0x20001000)
T34AC 000:494.421 - 0.011ms returns 0
T34AC 000:494.442 JLINK_WriteReg(CFBP, 0x00000000)
T34AC 000:494.471 - 0.028ms returns 0
T34AC 000:494.484 JLINK_SetBPEx(Addr = 0x20000000, Type = 0xFFFFFFF2)
T34AC 000:494.519 - 0.035ms returns 0x00000003
T34AC 000:494.526 JLINK_Go()
T34AC 000:494.549   CPU_ReadMem(4 bytes @ 0xE0001000)
T34AC 000:499.303 - 4.773ms 
T34AC 000:499.408 JLINK_IsHalted()
T34AC 000:500.308 - 0.900ms returns FALSE
T34AC 000:500.363 JLINK_HasError()
T34AC 000:593.367 JLINK_IsHalted()
T34AC 000:594.222 - 0.855ms returns FALSE
T34AC 000:594.247 JLINK_HasError()
T34AC 000:678.148 JLINK_IsHalted()
T34AC 000:679.239 - 1.093ms returns FALSE
T34AC 000:679.270 JLINK_HasError()
T34AC 000:754.009 JLINK_IsHalted()
T34AC 000:760.335 - 6.327ms returns FALSE
T34AC 000:760.417 JLINK_HasError()
T34AC 000:769.898 JLINK_IsHalted()
T34AC 000:770.690 - 0.795ms returns FALSE
T34AC 000:770.716 JLINK_HasError()
T34AC 000:771.882 JLINK_IsHalted()
T34AC 000:772.598 - 0.716ms returns FALSE
T34AC 000:772.620 JLINK_HasError()
T34AC 000:773.901 JLINK_IsHalted()
T34AC 000:774.595 - 0.720ms returns FALSE
T34AC 000:774.617 JLINK_HasError()
T34AC 000:775.872 JLINK_IsHalted()
T34AC 000:776.595 - 0.724ms returns FALSE
T34AC 000:776.621 JLINK_HasError()
T34AC 000:777.865 JLINK_IsHalted()
T34AC 000:778.617 - 0.753ms returns FALSE
T34AC 000:778.640 JLINK_HasError()
T34AC 000:779.860 JLINK_IsHalted()
T34AC 000:780.571 - 0.712ms returns FALSE
T34AC 000:780.594 JLINK_HasError()
T34AC 000:781.866 JLINK_IsHalted()
T34AC 000:782.644 - 0.782ms returns FALSE
T34AC 000:782.681 JLINK_HasError()
T34AC 000:783.859 JLINK_IsHalted()
T34AC 000:784.578 - 0.720ms returns FALSE
T34AC 000:784.608 JLINK_HasError()
T34AC 000:787.922 JLINK_IsHalted()
T34AC 000:788.596 - 0.676ms returns FALSE
T34AC 000:788.619 JLINK_HasError()
T34AC 000:789.834 JLINK_IsHalted()
T34AC 000:790.573 - 0.739ms returns FALSE
T34AC 000:790.599 JLINK_HasError()
T34AC 000:791.831 JLINK_IsHalted()
T34AC 000:806.188 - 14.356ms returns FALSE
T34AC 000:806.237 JLINK_HasError()
T34AC 000:807.852 JLINK_IsHalted()
T34AC 000:808.595 - 0.744ms returns FALSE
T34AC 000:808.621 JLINK_HasError()
T34AC 000:809.878 JLINK_IsHalted()
T34AC 000:810.617 - 0.740ms returns FALSE
T34AC 000:810.641 JLINK_HasError()
T34AC 000:811.848 JLINK_IsHalted()
T34AC 000:812.647 - 0.801ms returns FALSE
T34AC 000:812.671 JLINK_HasError()
T34AC 000:813.800 JLINK_IsHalted()
T34AC 000:814.615 - 0.816ms returns FALSE
T34AC 000:814.653 JLINK_HasError()
T34AC 000:815.789 JLINK_IsHalted()
T34AC 000:816.543 - 0.753ms returns FALSE
T34AC 000:816.571 JLINK_HasError()
T34AC 000:817.840 JLINK_IsHalted()
T34AC 000:818.557 - 0.719ms returns FALSE
T34AC 000:818.588 JLINK_HasError()
T34AC 000:819.776 JLINK_IsHalted()
T34AC 000:820.550 - 0.775ms returns FALSE
T34AC 000:820.587 JLINK_HasError()
T34AC 000:821.771 JLINK_IsHalted()
T34AC 000:822.592 - 0.822ms returns FALSE
T34AC 000:822.615 JLINK_HasError()
T34AC 000:823.763 JLINK_IsHalted()
T34AC 000:824.626 - 0.864ms returns FALSE
T34AC 000:824.662 JLINK_HasError()
T34AC 000:826.690 JLINK_IsHalted()
T34AC 000:827.400 - 0.709ms returns FALSE
T34AC 000:827.436 JLINK_HasError()
T34AC 000:828.776 JLINK_IsHalted()
T34AC 000:829.459 - 0.682ms returns FALSE
T34AC 000:829.495 JLINK_HasError()
T34AC 000:830.697 JLINK_IsHalted()
T34AC 000:831.395 - 0.697ms returns FALSE
T34AC 000:831.432 JLINK_HasError()
T34AC 000:834.700 JLINK_IsHalted()
T34AC 000:835.289 - 0.589ms returns FALSE
T34AC 000:835.312 JLINK_HasError()
T34AC 000:836.693 JLINK_IsHalted()
T34AC 000:837.285 - 0.592ms returns FALSE
T34AC 000:837.306 JLINK_HasError()
T34AC 000:838.687 JLINK_IsHalted()
T34AC 000:855.014   CPU_ReadMem(2 bytes @ 0x20000000)
T34AC 000:855.835 - 17.146ms returns TRUE
T34AC 000:855.861 JLINK_ReadReg(R15 (PC))
T34AC 000:855.895 - 0.033ms returns 0x20000000
T34AC 000:855.922 JLINK_ClrBPEx(BPHandle = 0x00000003)
T34AC 000:855.936 - 0.013ms returns 0x00
T34AC 000:855.943 JLINK_ReadReg(R0)
T34AC 000:855.955 - 0.012ms returns 0x00000000
T34AC 000:856.539 JLINK_HasError()
T34AC 000:856.550 JLINK_WriteReg(R0, 0x08004000)
T34AC 000:856.563 - 0.013ms returns 0
T34AC 000:856.569 JLINK_WriteReg(R1, 0x00004000)
T34AC 000:856.725 - 0.155ms returns 0
T34AC 000:856.749 JLINK_WriteReg(R2, 0x000000FF)
T34AC 000:856.761 - 0.011ms returns 0
T34AC 000:856.767 JLINK_WriteReg(R3, 0x00000000)
T34AC 000:856.777 - 0.010ms returns 0
T34AC 000:856.805 JLINK_WriteReg(R4, 0x00000000)
T34AC 000:856.818 - 0.012ms returns 0
T34AC 000:856.824 JLINK_WriteReg(R5, 0x00000000)
T34AC 000:856.854 - 0.030ms returns 0
T34AC 000:856.861 JLINK_WriteReg(R6, 0x00000000)
T34AC 000:856.875 - 0.013ms returns 0
T34AC 000:856.882 JLINK_WriteReg(R7, 0x00000000)
T34AC 000:856.895 - 0.013ms returns 0
T34AC 000:856.902 JLINK_WriteReg(R8, 0x00000000)
T34AC 000:856.916 - 0.014ms returns 0
T34AC 000:856.923 JLINK_WriteReg(R9, 0x20000180)
T34AC 000:856.936 - 0.012ms returns 0
T34AC 000:856.943 JLINK_WriteReg(R10, 0x00000000)
T34AC 000:856.973 - 0.029ms returns 0
T34AC 000:856.979 JLINK_WriteReg(R11, 0x00000000)
T34AC 000:857.012 - 0.033ms returns 0
T34AC 000:857.019 JLINK_WriteReg(R12, 0x00000000)
T34AC 000:857.032 - 0.012ms returns 0
T34AC 000:857.046 JLINK_WriteReg(R13 (SP), 0x20001000)
T34AC 000:857.063 - 0.017ms returns 0
T34AC 000:857.070 JLINK_WriteReg(R14, 0x20000001)
T34AC 000:857.083 - 0.012ms returns 0
T34AC 000:857.090 JLINK_WriteReg(R15 (PC), 0x20000020)
T34AC 000:857.103 - 0.013ms returns 0
T34AC 000:857.110 JLINK_WriteReg(XPSR, 0x01000000)
T34AC 000:857.140 - 0.029ms returns 0
T34AC 000:857.146 JLINK_WriteReg(MSP, 0x20001000)
T34AC 000:857.323 - 0.176ms returns 0
T34AC 000:857.330 JLINK_WriteReg(PSP, 0x20001000)
T34AC 000:857.350 - 0.019ms returns 0
T34AC 000:857.357 JLINK_WriteReg(CFBP, 0x00000000)
T34AC 000:857.386 - 0.029ms returns 0
T34AC 000:857.411 JLINK_SetBPEx(Addr = 0x20000000, Type = 0xFFFFFFF2)
T34AC 000:857.425 - 0.014ms returns 0x00000004
T34AC 000:857.432 JLINK_Go()
T34AC 000:857.455   CPU_ReadMem(4 bytes @ 0xE0001000)
T34AC 000:861.644 - 4.211ms 
T34AC 000:861.669 JLINK_IsHalted()
T34AC 000:862.452 - 0.782ms returns FALSE
T34AC 000:862.479 JLINK_HasError()
T34AC 000:871.589 JLINK_IsHalted()
T34AC 000:872.330 - 0.739ms returns FALSE
T34AC 000:872.384 JLINK_HasError()
T34AC 000:873.588 JLINK_IsHalted()
T34AC 000:874.196 - 0.607ms returns FALSE
T34AC 000:874.218 JLINK_HasError()
T34AC 000:875.581 JLINK_IsHalted()
T34AC 000:876.224 - 0.642ms returns FALSE
T34AC 000:876.245 JLINK_HasError()
T34AC 000:877.584 JLINK_IsHalted()
T34AC 000:880.578   CPU_ReadMem(2 bytes @ 0x20000000)
T34AC 000:881.252 - 3.667ms returns TRUE
T34AC 000:881.297 JLINK_ReadReg(R15 (PC))
T34AC 000:881.352 - 0.054ms returns 0x20000000
T34AC 000:881.360 JLINK_ClrBPEx(BPHandle = 0x00000004)
T34AC 000:881.374 - 0.013ms returns 0x00
T34AC 000:881.382 JLINK_ReadReg(R0)
T34AC 000:881.394 - 0.012ms returns 0x00000000
T34AC 000:882.010 JLINK_HasError()
T34AC 000:882.031 JLINK_WriteReg(R0, 0x00000001)
T34AC 000:882.047 - 0.015ms returns 0
T34AC 000:882.054 JLINK_WriteReg(R1, 0x00004000)
T34AC 000:882.068 - 0.013ms returns 0
T34AC 000:882.075 JLINK_WriteReg(R2, 0x000000FF)
T34AC 000:882.089 - 0.014ms returns 0
T34AC 000:882.096 JLINK_WriteReg(R3, 0x00000000)
T34AC 000:882.109 - 0.012ms returns 0
T34AC 000:882.117 JLINK_WriteReg(R4, 0x00000000)
T34AC 000:882.130 - 0.012ms returns 0
T34AC 000:882.136 JLINK_WriteReg(R5, 0x00000000)
T34AC 000:882.150 - 0.013ms returns 0
T34AC 000:882.157 JLINK_WriteReg(R6, 0x00000000)
T34AC 000:882.381 - 0.223ms returns 0
T34AC 000:882.388 JLINK_WriteReg(R7, 0x00000000)
T34AC 000:882.401 - 0.012ms returns 0
T34AC 000:882.408 JLINK_WriteReg(R8, 0x00000000)
T34AC 000:882.421 - 0.012ms returns 0
T34AC 000:882.446 JLINK_WriteReg(R9, 0x20000180)
T34AC 000:882.459 - 0.012ms returns 0
T34AC 000:882.466 JLINK_WriteReg(R10, 0x00000000)
T34AC 000:882.483 - 0.017ms returns 0
T34AC 000:882.490 JLINK_WriteReg(R11, 0x00000000)
T34AC 000:882.503 - 0.013ms returns 0
T34AC 000:882.510 JLINK_WriteReg(R12, 0x00000000)
T34AC 000:882.523 - 0.012ms returns 0
T34AC 000:882.531 JLINK_WriteReg(R13 (SP), 0x20001000)
T34AC 000:882.546 - 0.015ms returns 0
T34AC 000:882.553 JLINK_WriteReg(R14, 0x20000001)
T34AC 000:882.566 - 0.013ms returns 0
T34AC 000:882.574 JLINK_WriteReg(R15 (PC), 0x20000086)
T34AC 000:882.587 - 0.013ms returns 0
T34AC 000:882.594 JLINK_WriteReg(XPSR, 0x01000000)
T34AC 000:882.607 - 0.013ms returns 0
T34AC 000:882.614 JLINK_WriteReg(MSP, 0x20001000)
T34AC 000:882.627 - 0.012ms returns 0
T34AC 000:882.634 JLINK_WriteReg(PSP, 0x20001000)
T34AC 000:882.647 - 0.013ms returns 0
T34AC 000:882.654 JLINK_WriteReg(CFBP, 0x00000000)
T34AC 000:882.667 - 0.012ms returns 0
T34AC 000:882.675 JLINK_SetBPEx(Addr = 0x20000000, Type = 0xFFFFFFF2)
T34AC 000:882.690 - 0.015ms returns 0x00000005
T34AC 000:882.697 JLINK_Go()
T34AC 000:882.724   CPU_ReadMem(4 bytes @ 0xE0001000)
T34AC 000:886.646 - 3.948ms 
T34AC 000:886.684 JLINK_IsHalted()
T34AC 000:889.920   CPU_ReadMem(2 bytes @ 0x20000000)
T34AC 000:890.703 - 4.018ms returns TRUE
T34AC 000:890.730 JLINK_ReadReg(R15 (PC))
T34AC 000:890.872 - 0.142ms returns 0x20000000
T34AC 000:890.882 JLINK_ClrBPEx(BPHandle = 0x00000005)
T34AC 000:890.914 - 0.032ms returns 0x00
T34AC 000:890.927 JLINK_ReadReg(R0)
T34AC 000:890.941 - 0.013ms returns 0x00000000
T34AC 000:958.658 JLINK_WriteMem(0x20000000, 0x184 Bytes, ...)
T34AC 000:958.676   Data:  00 BE 0A E0 0D 78 2D 06 68 40 08 24 40 00 00 D3 ...
T34AC 000:958.710   CPU_WriteMem(388 bytes @ 0x20000000)
T34AC 000:960.827 - 2.168ms returns 0x184
T34AC 000:960.890 JLINK_HasError()
T34AC 000:960.900 JLINK_WriteReg(R0, 0x08000000)
T34AC 000:960.932 - 0.031ms returns 0
T34AC 000:960.937 JLINK_WriteReg(R1, 0x017D7840)
T34AC 000:960.966 - 0.029ms returns 0
T34AC 000:960.973 JLINK_WriteReg(R2, 0x00000002)
T34AC 000:960.985 - 0.012ms returns 0
T34AC 000:960.992 JLINK_WriteReg(R3, 0x00000000)
T34AC 000:961.004 - 0.011ms returns 0
T34AC 000:961.010 JLINK_WriteReg(R4, 0x00000000)
T34AC 000:961.022 - 0.012ms returns 0
T34AC 000:961.029 JLINK_WriteReg(R5, 0x00000000)
T34AC 000:961.056 - 0.027ms returns 0
T34AC 000:961.061 JLINK_WriteReg(R6, 0x00000000)
T34AC 000:961.071 - 0.009ms returns 0
T34AC 000:961.077 JLINK_WriteReg(R7, 0x00000000)
T34AC 000:961.086 - 0.009ms returns 0
T34AC 000:961.092 JLINK_WriteReg(R8, 0x00000000)
T34AC 000:961.205 - 0.113ms returns 0
T34AC 000:961.211 JLINK_WriteReg(R9, 0x20000180)
T34AC 000:961.221 - 0.010ms returns 0
T34AC 000:961.227 JLINK_WriteReg(R10, 0x00000000)
T34AC 000:961.237 - 0.010ms returns 0
T34AC 000:961.242 JLINK_WriteReg(R11, 0x00000000)
T34AC 000:961.252 - 0.010ms returns 0
T34AC 000:961.258 JLINK_WriteReg(R12, 0x00000000)
T34AC 000:961.268 - 0.010ms returns 0
T34AC 000:961.273 JLINK_WriteReg(R13 (SP), 0x20001000)
T34AC 000:961.284 - 0.011ms returns 0
T34AC 000:961.290 JLINK_WriteReg(R14, 0x20000001)
T34AC 000:961.300 - 0.010ms returns 0
T34AC 000:961.306 JLINK_WriteReg(R15 (PC), 0x20000054)
T34AC 000:961.316 - 0.010ms returns 0
T34AC 000:961.321 JLINK_WriteReg(XPSR, 0x01000000)
T34AC 000:961.331 - 0.010ms returns 0
T34AC 000:961.337 JLINK_WriteReg(MSP, 0x20001000)
T34AC 000:961.347 - 0.010ms returns 0
T34AC 000:961.353 JLINK_WriteReg(PSP, 0x20001000)
T34AC 000:961.363 - 0.010ms returns 0
T34AC 000:961.368 JLINK_WriteReg(CFBP, 0x00000000)
T34AC 000:961.378 - 0.010ms returns 0
T34AC 000:961.385 JLINK_SetBPEx(Addr = 0x20000000, Type = 0xFFFFFFF2)
T34AC 000:961.401   CPU_ReadMem(2 bytes @ 0x20000000)
T34AC 000:962.179 - 0.794ms returns 0x00000006
T34AC 000:962.217 JLINK_Go()
T34AC 000:962.236   CPU_WriteMem(2 bytes @ 0x20000000)
T34AC 000:963.052   CPU_ReadMem(4 bytes @ 0xE0001000)
T34AC 000:967.012 - 4.793ms 
T34AC 000:967.079 JLINK_IsHalted()
T34AC 000:970.518   CPU_ReadMem(2 bytes @ 0x20000000)
T34AC 000:971.290 - 4.211ms returns TRUE
T34AC 000:971.341 JLINK_ReadReg(R15 (PC))
T34AC 000:971.359 - 0.017ms returns 0x20000000
T34AC 000:971.370 JLINK_ClrBPEx(BPHandle = 0x00000006)
T34AC 000:971.383 - 0.013ms returns 0x00
T34AC 000:971.391 JLINK_ReadReg(R0)
T34AC 000:971.528 - 0.136ms returns 0x00000000
T34AC 000:971.874 JLINK_WriteMem(0x20000184, 0x27C Bytes, ...)
T34AC 000:971.884   Data:  40 5A 00 20 A5 03 00 08 E7 2F 00 08 A3 2E 00 08 ...
T34AC 000:971.907   CPU_WriteMem(636 bytes @ 0x20000184)
T34AC 000:974.661 - 2.787ms returns 0x27C
T34AC 000:974.740 JLINK_WriteMem(0x20000400, 0x184 Bytes, ...)
T34AC 000:974.751   Data:  41 F0 80 01 63 29 00 F0 D0 84 73 29 00 F0 D5 84 ...
T34AC 000:974.800   CPU_WriteMem(388 bytes @ 0x20000400)
T34AC 000:976.777 - 2.035ms returns 0x184
T34AC 000:976.845 JLINK_HasError()
T34AC 000:976.855 JLINK_WriteReg(R0, 0x08000000)
T34AC 000:976.877 - 0.022ms returns 0
T34AC 000:976.884 JLINK_WriteReg(R1, 0x00000400)
T34AC 000:976.897 - 0.012ms returns 0
T34AC 000:976.904 JLINK_WriteReg(R2, 0x20000184)
T34AC 000:976.931 - 0.027ms returns 0
T34AC 000:976.937 JLINK_WriteReg(R3, 0x00000000)
T34AC 000:976.948 - 0.010ms returns 0
T34AC 000:976.953 JLINK_WriteReg(R4, 0x00000000)
T34AC 000:976.964 - 0.010ms returns 0
T34AC 000:976.970 JLINK_WriteReg(R5, 0x00000000)
T34AC 000:976.980 - 0.010ms returns 0
T34AC 000:976.986 JLINK_WriteReg(R6, 0x00000000)
T34AC 000:976.996 - 0.010ms returns 0
T34AC 000:977.059 JLINK_WriteReg(R7, 0x00000000)
T34AC 000:977.071 - 0.011ms returns 0
T34AC 000:977.077 JLINK_WriteReg(R8, 0x00000000)
T34AC 000:977.088 - 0.010ms returns 0
T34AC 000:977.093 JLINK_WriteReg(R9, 0x20000180)
T34AC 000:977.104 - 0.010ms returns 0
T34AC 000:977.110 JLINK_WriteReg(R10, 0x00000000)
T34AC 000:977.120 - 0.010ms returns 0
T34AC 000:977.126 JLINK_WriteReg(R11, 0x00000000)
T34AC 000:977.137 - 0.010ms returns 0
T34AC 000:977.142 JLINK_WriteReg(R12, 0x00000000)
T34AC 000:977.153 - 0.010ms returns 0
T34AC 000:977.159 JLINK_WriteReg(R13 (SP), 0x20001000)
T34AC 000:977.273 - 0.114ms returns 0
T34AC 000:977.279 JLINK_WriteReg(R14, 0x20000001)
T34AC 000:977.290 - 0.010ms returns 0
T34AC 000:977.296 JLINK_WriteReg(R15 (PC), 0x2000010C)
T34AC 000:977.307 - 0.010ms returns 0
T34AC 000:977.313 JLINK_WriteReg(XPSR, 0x01000000)
T34AC 000:977.323 - 0.010ms returns 0
T34AC 000:977.329 JLINK_WriteReg(MSP, 0x20001000)
T34AC 000:977.340 - 0.010ms returns 0
T34AC 000:977.347 JLINK_WriteReg(PSP, 0x20001000)
T34AC 000:977.374 - 0.027ms returns 0
T34AC 000:977.382 JLINK_WriteReg(CFBP, 0x00000000)
T34AC 000:977.394 - 0.012ms returns 0
T34AC 000:977.402 JLINK_SetBPEx(Addr = 0x20000000, Type = 0xFFFFFFF2)
T34AC 000:977.416 - 0.014ms returns 0x00000007
T34AC 000:977.423 JLINK_Go()
T34AC 000:977.444   CPU_ReadMem(4 bytes @ 0xE0001000)
T34AC 000:995.733 - 18.309ms 
T34AC 000:995.778 JLINK_IsHalted()
T34AC 000:996.773 - 0.994ms returns FALSE
T34AC 000:996.804 JLINK_HasError()
T34AC 001:003.660 JLINK_IsHalted()
T34AC 001:007.642   CPU_ReadMem(2 bytes @ 0x20000000)
T34AC 001:008.489 - 4.829ms returns TRUE
T34AC 001:008.540 JLINK_ReadReg(R15 (PC))
T34AC 001:008.557 - 0.017ms returns 0x20000000
T34AC 001:008.581 JLINK_ClrBPEx(BPHandle = 0x00000007)
T34AC 001:008.611 - 0.029ms returns 0x00
T34AC 001:008.637 JLINK_ReadReg(R0)
T34AC 001:008.666 - 0.028ms returns 0x00000000
T34AC 001:009.628 JLINK_WriteMem(0x20000184, 0x27C Bytes, ...)
T34AC 001:009.637   Data:  24 FA 05 F6 5E 40 12 BF 16 43 B2 FA 82 F5 02 FA ...
T34AC 001:009.655   CPU_WriteMem(636 bytes @ 0x20000184)
T34AC 001:012.711 - 3.082ms returns 0x27C
T34AC 001:012.742 JLINK_WriteMem(0x20000400, 0x184 Bytes, ...)
T34AC 001:012.750   Data:  2B 00 00 00 20 00 00 00 F0 B4 0D 46 01 88 09 05 ...
T34AC 001:012.769   CPU_WriteMem(388 bytes @ 0x20000400)
T34AC 001:015.164 - 2.421ms returns 0x184
T34AC 001:015.207 JLINK_HasError()
T34AC 001:015.238 JLINK_WriteReg(R0, 0x08000400)
T34AC 001:015.260 - 0.022ms returns 0
T34AC 001:015.268 JLINK_WriteReg(R1, 0x00000400)
T34AC 001:015.493 - 0.225ms returns 0
T34AC 001:015.501 JLINK_WriteReg(R2, 0x20000184)
T34AC 001:015.530 - 0.029ms returns 0
T34AC 001:015.537 JLINK_WriteReg(R3, 0x00000000)
T34AC 001:015.548 - 0.011ms returns 0
T34AC 001:015.575 JLINK_WriteReg(R4, 0x00000000)
T34AC 001:015.586 - 0.011ms returns 0
T34AC 001:015.592 JLINK_WriteReg(R5, 0x00000000)
T34AC 001:015.604 - 0.011ms returns 0
T34AC 001:015.610 JLINK_WriteReg(R6, 0x00000000)
T34AC 001:015.620 - 0.010ms returns 0
T34AC 001:015.626 JLINK_WriteReg(R7, 0x00000000)
T34AC 001:015.637 - 0.010ms returns 0
T34AC 001:015.644 JLINK_WriteReg(R8, 0x00000000)
T34AC 001:015.654 - 0.011ms returns 0
T34AC 001:015.660 JLINK_WriteReg(R9, 0x20000180)
T34AC 001:015.671 - 0.011ms returns 0
T34AC 001:015.677 JLINK_WriteReg(R10, 0x00000000)
T34AC 001:015.688 - 0.011ms returns 0
T34AC 001:015.694 JLINK_WriteReg(R11, 0x00000000)
T34AC 001:015.706 - 0.011ms returns 0
T34AC 001:015.712 JLINK_WriteReg(R12, 0x00000000)
T34AC 001:015.723 - 0.011ms returns 0
T34AC 001:015.729 JLINK_WriteReg(R13 (SP), 0x20001000)
T34AC 001:015.741 - 0.012ms returns 0
T34AC 001:015.747 JLINK_WriteReg(R14, 0x20000001)
T34AC 001:015.758 - 0.010ms returns 0
T34AC 001:015.780 JLINK_WriteReg(R15 (PC), 0x2000010C)
T34AC 001:015.806 - 0.026ms returns 0
T34AC 001:015.812 JLINK_WriteReg(XPSR, 0x01000000)
T34AC 001:015.824 - 0.011ms returns 0
T34AC 001:015.850 JLINK_WriteReg(MSP, 0x20001000)
T34AC 001:016.024 - 0.173ms returns 0
T34AC 001:016.036 JLINK_WriteReg(PSP, 0x20001000)
T34AC 001:016.051 - 0.015ms returns 0
T34AC 001:016.058 JLINK_WriteReg(CFBP, 0x00000000)
T34AC 001:016.069 - 0.011ms returns 0
T34AC 001:016.076 JLINK_SetBPEx(Addr = 0x20000000, Type = 0xFFFFFFF2)
T34AC 001:016.088 - 0.013ms returns 0x00000008
T34AC 001:016.095 JLINK_Go()
T34AC 001:016.115   CPU_ReadMem(4 bytes @ 0xE0001000)
T34AC 001:034.046 - 17.950ms 
T34AC 001:034.134 JLINK_IsHalted()
T34AC 001:035.173 - 1.038ms returns FALSE
T34AC 001:035.213 JLINK_HasError()
T34AC 001:037.233 JLINK_IsHalted()
T34AC 001:038.205 - 0.971ms returns FALSE
T34AC 001:038.253 JLINK_HasError()
T34AC 001:042.531 JLINK_IsHalted()
T34AC 001:046.396   CPU_ReadMem(2 bytes @ 0x20000000)
T34AC 001:047.200 - 4.667ms returns TRUE
T34AC 001:047.239 JLINK_ReadReg(R15 (PC))
T34AC 001:047.274 - 0.034ms returns 0x20000000
T34AC 001:047.281 JLINK_ClrBPEx(BPHandle = 0x00000008)
T34AC 001:047.293 - 0.012ms returns 0x00
T34AC 001:047.329 JLINK_ReadReg(R0)
T34AC 001:047.343 - 0.013ms returns 0x00000000
T34AC 001:048.224 JLINK_WriteMem(0x20000184, 0x27C Bytes, ...)
T34AC 001:048.240   Data:  F0 07 01 D0 26 F0 10 06 6C 2D 0B D0 68 2D 09 D0 ...
T34AC 001:048.264   CPU_WriteMem(636 bytes @ 0x20000184)
T34AC 001:051.097 - 2.872ms returns 0x27C
T34AC 001:051.154 JLINK_WriteMem(0x20000400, 0x184 Bytes, ...)
T34AC 001:051.185   Data:  13 46 94 46 96 46 20 39 22 BF A0 E8 0C 50 A0 E8 ...
T34AC 001:051.214   CPU_WriteMem(388 bytes @ 0x20000400)
T34AC 001:053.415 - 2.260ms returns 0x184
T34AC 001:053.458 JLINK_HasError()
T34AC 001:053.470 JLINK_WriteReg(R0, 0x08000800)
T34AC 001:053.488 - 0.018ms returns 0
T34AC 001:053.512 JLINK_WriteReg(R1, 0x00000400)
T34AC 001:053.541 - 0.028ms returns 0
T34AC 001:053.547 JLINK_WriteReg(R2, 0x20000184)
T34AC 001:053.579 - 0.031ms returns 0
T34AC 001:053.585 JLINK_WriteReg(R3, 0x00000000)
T34AC 001:053.618 - 0.033ms returns 0
T34AC 001:053.626 JLINK_WriteReg(R4, 0x00000000)
T34AC 001:053.640 - 0.013ms returns 0
T34AC 001:053.648 JLINK_WriteReg(R5, 0x00000000)
T34AC 001:053.851 - 0.203ms returns 0
T34AC 001:053.858 JLINK_WriteReg(R6, 0x00000000)
T34AC 001:053.881 - 0.022ms returns 0
T34AC 001:053.887 JLINK_WriteReg(R7, 0x00000000)
T34AC 001:053.899 - 0.011ms returns 0
T34AC 001:053.905 JLINK_WriteReg(R8, 0x00000000)
T34AC 001:053.916 - 0.011ms returns 0
T34AC 001:053.942 JLINK_WriteReg(R9, 0x20000180)
T34AC 001:053.955 - 0.012ms returns 0
T34AC 001:053.982 JLINK_WriteReg(R10, 0x00000000)
T34AC 001:053.996 - 0.013ms returns 0
T34AC 001:054.004 JLINK_WriteReg(R11, 0x00000000)
T34AC 001:054.018 - 0.013ms returns 0
T34AC 001:054.025 JLINK_WriteReg(R12, 0x00000000)
T34AC 001:054.039 - 0.013ms returns 0
T34AC 001:054.047 JLINK_WriteReg(R13 (SP), 0x20001000)
T34AC 001:054.061 - 0.014ms returns 0
T34AC 001:054.069 JLINK_WriteReg(R14, 0x20000001)
T34AC 001:054.118 - 0.048ms returns 0
T34AC 001:054.126 JLINK_WriteReg(R15 (PC), 0x2000010C)
T34AC 001:054.141 - 0.016ms returns 0
T34AC 001:054.149 JLINK_WriteReg(XPSR, 0x01000000)
T34AC 001:054.163 - 0.013ms returns 0
T34AC 001:054.171 JLINK_WriteReg(MSP, 0x20001000)
T34AC 001:054.202 - 0.031ms returns 0
T34AC 001:054.212 JLINK_WriteReg(PSP, 0x20001000)
T34AC 001:054.254 - 0.042ms returns 0
T34AC 001:054.262 JLINK_WriteReg(CFBP, 0x00000000)
T34AC 001:054.276 - 0.014ms returns 0
T34AC 001:054.284 JLINK_SetBPEx(Addr = 0x20000000, Type = 0xFFFFFFF2)
T34AC 001:054.316 - 0.031ms returns 0x00000009
T34AC 001:054.323 JLINK_Go()
T34AC 001:054.523   CPU_ReadMem(4 bytes @ 0xE0001000)
T34AC 001:071.837 - 17.513ms 
T34AC 001:071.884 JLINK_IsHalted()
T34AC 001:072.784 - 0.899ms returns FALSE
T34AC 001:072.821 JLINK_HasError()
T34AC 001:076.993 JLINK_IsHalted()
T34AC 001:081.336   CPU_ReadMem(2 bytes @ 0x20000000)
T34AC 001:082.334 - 5.340ms returns TRUE
T34AC 001:082.395 JLINK_ReadReg(R15 (PC))
T34AC 001:082.433 - 0.038ms returns 0x20000000
T34AC 001:082.442 JLINK_ClrBPEx(BPHandle = 0x00000009)
T34AC 001:082.457 - 0.014ms returns 0x00
T34AC 001:082.483 JLINK_ReadReg(R0)
T34AC 001:082.503 - 0.020ms returns 0x00000000
T34AC 001:083.448 JLINK_WriteMem(0x20000184, 0x27C Bytes, ...)
T34AC 001:083.461   Data:  70 47 D1 E9 00 23 9A 42 02 D2 53 1C 0B 60 10 70 ...
T34AC 001:083.485   CPU_WriteMem(636 bytes @ 0x20000184)
T34AC 001:086.646 - 3.197ms returns 0x27C
T34AC 001:086.702 JLINK_WriteMem(0x20000400, 0x184 Bytes, ...)
T34AC 001:086.711   Data:  01 6E 10 EB 0E 00 41 EB 11 21 4F EA 10 4E 4E EA ...
T34AC 001:086.732   CPU_WriteMem(388 bytes @ 0x20000400)
T34AC 001:088.957 - 2.254ms returns 0x184
T34AC 001:088.992 JLINK_HasError()
T34AC 001:089.002 JLINK_WriteReg(R0, 0x08000C00)
T34AC 001:089.033 - 0.015ms returns 0
T34AC 001:089.039 JLINK_WriteReg(R1, 0x00000400)
T34AC 001:089.070 - 0.031ms returns 0
T34AC 001:089.076 JLINK_WriteReg(R2, 0x20000184)
T34AC 001:089.088 - 0.012ms returns 0
T34AC 001:089.095 JLINK_WriteReg(R3, 0x00000000)
T34AC 001:089.107 - 0.011ms returns 0
T34AC 001:089.113 JLINK_WriteReg(R4, 0x00000000)
T34AC 001:089.125 - 0.011ms returns 0
T34AC 001:089.132 JLINK_WriteReg(R5, 0x00000000)
T34AC 001:089.159 - 0.027ms returns 0
T34AC 001:089.165 JLINK_WriteReg(R6, 0x00000000)
T34AC 001:089.175 - 0.009ms returns 0
T34AC 001:089.180 JLINK_WriteReg(R7, 0x00000000)
T34AC 001:089.190 - 0.010ms returns 0
T34AC 001:089.196 JLINK_WriteReg(R8, 0x00000000)
T34AC 001:089.206 - 0.010ms returns 0
T34AC 001:089.211 JLINK_WriteReg(R9, 0x20000180)
T34AC 001:089.319 - 0.108ms returns 0
T34AC 001:089.326 JLINK_WriteReg(R10, 0x00000000)
T34AC 001:089.336 - 0.010ms returns 0
T34AC 001:089.341 JLINK_WriteReg(R11, 0x00000000)
T34AC 001:089.351 - 0.010ms returns 0
T34AC 001:089.357 JLINK_WriteReg(R12, 0x00000000)
T34AC 001:089.367 - 0.010ms returns 0
T34AC 001:089.373 JLINK_WriteReg(R13 (SP), 0x20001000)
T34AC 001:089.383 - 0.010ms returns 0
T34AC 001:089.389 JLINK_WriteReg(R14, 0x20000001)
T34AC 001:089.402 - 0.013ms returns 0
T34AC 001:089.408 JLINK_WriteReg(R15 (PC), 0x2000010C)
T34AC 001:089.418 - 0.010ms returns 0
T34AC 001:089.424 JLINK_WriteReg(XPSR, 0x01000000)
T34AC 001:089.434 - 0.010ms returns 0
T34AC 001:089.439 JLINK_WriteReg(MSP, 0x20001000)
T34AC 001:089.449 - 0.009ms returns 0
T34AC 001:089.455 JLINK_WriteReg(PSP, 0x20001000)
T34AC 001:089.465 - 0.010ms returns 0
T34AC 001:089.470 JLINK_WriteReg(CFBP, 0x00000000)
T34AC 001:089.480 - 0.010ms returns 0
T34AC 001:089.487 JLINK_SetBPEx(Addr = 0x20000000, Type = 0xFFFFFFF2)
T34AC 001:089.498 - 0.011ms returns 0x0000000A
T34AC 001:089.503 JLINK_Go()
T34AC 001:089.520   CPU_ReadMem(4 bytes @ 0xE0001000)
T34AC 001:094.028 - 4.523ms 
T34AC 001:094.081 JLINK_IsHalted()
T34AC 001:095.026 - 0.944ms returns FALSE
T34AC 001:095.060 JLINK_HasError()
T34AC 001:096.954 JLINK_IsHalted()
T34AC 001:113.108   CPU_ReadMem(2 bytes @ 0x20000000)
T34AC 001:114.408 - 17.453ms returns TRUE
T34AC 001:114.477 JLINK_ReadReg(R15 (PC))
T34AC 001:114.497 - 0.020ms returns 0x20000000
T34AC 001:114.507 JLINK_ClrBPEx(BPHandle = 0x0000000A)
T34AC 001:114.522 - 0.014ms returns 0x00
T34AC 001:114.531 JLINK_ReadReg(R0)
T34AC 001:114.546 - 0.014ms returns 0x00000000
T34AC 001:115.536 JLINK_WriteMem(0x20000184, 0x27C Bytes, ...)
T34AC 001:115.564   Data:  75 1E 05 D4 FF F7 22 FF 30 32 62 55 6D 1E F9 D5 ...
T34AC 001:115.713   CPU_WriteMem(636 bytes @ 0x20000184)
T34AC 001:118.889 - 3.353ms returns 0x27C
T34AC 001:118.949 JLINK_WriteMem(0x20000400, 0x184 Bytes, ...)
T34AC 001:118.958   Data:  C0 06 22 D5 20 46 FF F7 73 F9 1E E0 00 2E 04 DB ...
T34AC 001:118.982   CPU_WriteMem(388 bytes @ 0x20000400)
T34AC 001:121.224 - 2.274ms returns 0x184
T34AC 001:121.278 JLINK_HasError()
T34AC 001:121.288 JLINK_WriteReg(R0, 0x08001000)
T34AC 001:121.304 - 0.015ms returns 0
T34AC 001:121.311 JLINK_WriteReg(R1, 0x00000400)
T34AC 001:121.323 - 0.012ms returns 0
T34AC 001:121.330 JLINK_WriteReg(R2, 0x20000184)
T34AC 001:121.358 - 0.027ms returns 0
T34AC 001:121.383 JLINK_WriteReg(R3, 0x00000000)
T34AC 001:121.395 - 0.012ms returns 0
T34AC 001:121.402 JLINK_WriteReg(R4, 0x00000000)
T34AC 001:121.435 - 0.032ms returns 0
T34AC 001:121.464 JLINK_WriteReg(R5, 0x00000000)
T34AC 001:121.482 - 0.017ms returns 0
T34AC 001:121.489 JLINK_WriteReg(R6, 0x00000000)
T34AC 001:121.501 - 0.012ms returns 0
T34AC 001:121.508 JLINK_WriteReg(R7, 0x00000000)
T34AC 001:121.520 - 0.012ms returns 0
T34AC 001:121.527 JLINK_WriteReg(R8, 0x00000000)
T34AC 001:121.538 - 0.012ms returns 0
T34AC 001:121.545 JLINK_WriteReg(R9, 0x20000180)
T34AC 001:121.557 - 0.011ms returns 0
T34AC 001:121.564 JLINK_WriteReg(R10, 0x00000000)
T34AC 001:121.576 - 0.012ms returns 0
T34AC 001:121.582 JLINK_WriteReg(R11, 0x00000000)
T34AC 001:121.594 - 0.011ms returns 0
T34AC 001:121.601 JLINK_WriteReg(R12, 0x00000000)
T34AC 001:121.629 - 0.028ms returns 0
T34AC 001:121.635 JLINK_WriteReg(R13 (SP), 0x20001000)
T34AC 001:121.672 - 0.037ms returns 0
T34AC 001:121.679 JLINK_WriteReg(R14, 0x20000001)
T34AC 001:121.809 - 0.129ms returns 0
T34AC 001:121.815 JLINK_WriteReg(R15 (PC), 0x2000010C)
T34AC 001:121.825 - 0.010ms returns 0
T34AC 001:121.831 JLINK_WriteReg(XPSR, 0x01000000)
T34AC 001:121.841 - 0.010ms returns 0
T34AC 001:121.847 JLINK_WriteReg(MSP, 0x20001000)
T34AC 001:121.857 - 0.009ms returns 0
T34AC 001:121.862 JLINK_WriteReg(PSP, 0x20001000)
T34AC 001:121.872 - 0.010ms returns 0
T34AC 001:121.878 JLINK_WriteReg(CFBP, 0x00000000)
T34AC 001:121.887 - 0.009ms returns 0
T34AC 001:121.894 JLINK_SetBPEx(Addr = 0x20000000, Type = 0xFFFFFFF2)
T34AC 001:121.905 - 0.011ms returns 0x0000000B
T34AC 001:121.911 JLINK_Go()
T34AC 001:121.929   CPU_ReadMem(4 bytes @ 0xE0001000)
T34AC 001:126.697 - 4.785ms 
T34AC 001:126.732 JLINK_IsHalted()
T34AC 001:127.667 - 0.933ms returns FALSE
T34AC 001:127.744 JLINK_HasError()
T34AC 001:130.779 JLINK_IsHalted()
T34AC 001:134.749   CPU_ReadMem(2 bytes @ 0x20000000)
T34AC 001:135.574 - 4.794ms returns TRUE
T34AC 001:135.612 JLINK_ReadReg(R15 (PC))
T34AC 001:135.646 - 0.034ms returns 0x20000000
T34AC 001:135.653 JLINK_ClrBPEx(BPHandle = 0x0000000B)
T34AC 001:135.666 - 0.012ms returns 0x00
T34AC 001:135.673 JLINK_ReadReg(R0)
T34AC 001:135.686 - 0.012ms returns 0x00000000
T34AC 001:136.548 JLINK_WriteMem(0x20000184, 0x27C Bytes, ...)
T34AC 001:136.558   Data:  78 44 19 38 08 AA 30 23 02 F8 0A 30 03 7C 0A F1 ...
T34AC 001:136.596   CPU_WriteMem(636 bytes @ 0x20000184)
T34AC 001:152.628 - 16.078ms returns 0x27C
T34AC 001:152.713 JLINK_WriteMem(0x20000400, 0x184 Bytes, ...)
T34AC 001:152.745   Data:  4F F0 00 06 4F F0 00 07 4F F0 00 08 4F F0 00 0B ...
T34AC 001:152.772   CPU_WriteMem(388 bytes @ 0x20000400)
T34AC 001:155.217 - 2.503ms returns 0x184
T34AC 001:155.271 JLINK_HasError()
T34AC 001:155.323 JLINK_WriteReg(R0, 0x08001400)
T34AC 001:155.340 - 0.016ms returns 0
T34AC 001:155.348 JLINK_WriteReg(R1, 0x00000400)
T34AC 001:155.361 - 0.013ms returns 0
T34AC 001:155.369 JLINK_WriteReg(R2, 0x20000184)
T34AC 001:155.555 - 0.186ms returns 0
T34AC 001:155.584 JLINK_WriteReg(R3, 0x00000000)
T34AC 001:155.615 - 0.030ms returns 0
T34AC 001:155.642 JLINK_WriteReg(R4, 0x00000000)
T34AC 001:155.655 - 0.033ms returns 0
T34AC 001:155.663 JLINK_WriteReg(R5, 0x00000000)
T34AC 001:155.675 - 0.012ms returns 0
T34AC 001:155.682 JLINK_WriteReg(R6, 0x00000000)
T34AC 001:155.694 - 0.012ms returns 0
T34AC 001:155.701 JLINK_WriteReg(R7, 0x00000000)
T34AC 001:155.713 - 0.012ms returns 0
T34AC 001:155.719 JLINK_WriteReg(R8, 0x00000000)
T34AC 001:155.732 - 0.012ms returns 0
T34AC 001:155.738 JLINK_WriteReg(R9, 0x20000180)
T34AC 001:155.750 - 0.011ms returns 0
T34AC 001:155.757 JLINK_WriteReg(R10, 0x00000000)
T34AC 001:155.769 - 0.012ms returns 0
T34AC 001:155.775 JLINK_WriteReg(R11, 0x00000000)
T34AC 001:155.823 - 0.047ms returns 0
T34AC 001:155.830 JLINK_WriteReg(R12, 0x00000000)
T34AC 001:155.842 - 0.011ms returns 0
T34AC 001:155.849 JLINK_WriteReg(R13 (SP), 0x20001000)
T34AC 001:155.862 - 0.013ms returns 0
T34AC 001:155.869 JLINK_WriteReg(R14, 0x20000001)
T34AC 001:155.881 - 0.011ms returns 0
T34AC 001:155.888 JLINK_WriteReg(R15 (PC), 0x2000010C)
T34AC 001:155.899 - 0.012ms returns 0
T34AC 001:155.911 JLINK_WriteReg(XPSR, 0x01000000)
T34AC 001:155.971 - 0.060ms returns 0
T34AC 001:155.980 JLINK_WriteReg(MSP, 0x20001000)
T34AC 001:155.992 - 0.012ms returns 0
T34AC 001:155.999 JLINK_WriteReg(PSP, 0x20001000)
T34AC 001:156.156 - 0.156ms returns 0
T34AC 001:156.164 JLINK_WriteReg(CFBP, 0x00000000)
T34AC 001:156.176 - 0.012ms returns 0
T34AC 001:156.184 JLINK_SetBPEx(Addr = 0x20000000, Type = 0xFFFFFFF2)
T34AC 001:156.197 - 0.013ms returns 0x0000000C
T34AC 001:156.204 JLINK_Go()
T34AC 001:156.260   CPU_ReadMem(4 bytes @ 0xE0001000)
T34AC 001:161.361 - 5.157ms 
T34AC 001:161.436 JLINK_IsHalted()
T34AC 001:162.343 - 0.890ms returns FALSE
T34AC 001:162.414 JLINK_HasError()
T34AC 001:167.544 JLINK_IsHalted()
T34AC 001:171.456   CPU_ReadMem(2 bytes @ 0x20000000)
T34AC 001:172.404 - 4.859ms returns TRUE
T34AC 001:172.476 JLINK_ReadReg(R15 (PC))
T34AC 001:172.516 - 0.039ms returns 0x20000000
T34AC 001:172.525 JLINK_ClrBPEx(BPHandle = 0x0000000C)
T34AC 001:172.540 - 0.015ms returns 0x00
T34AC 001:172.549 JLINK_ReadReg(R0)
T34AC 001:172.563 - 0.013ms returns 0x00000000
T34AC 001:173.124 JLINK_WriteMem(0x20000184, 0x27C Bytes, ...)
T34AC 001:173.135   Data:  B8 F1 00 0F 03 A8 02 D0 00 F0 DD FA 01 E0 00 F0 ...
T34AC 001:173.156   CPU_WriteMem(636 bytes @ 0x20000184)
T34AC 001:176.294 - 3.170ms returns 0x27C
T34AC 001:176.349 JLINK_WriteMem(0x20000400, 0x184 Bytes, ...)
T34AC 001:176.375   Data:  0C FB 0B F7 B0 EB C7 40 72 EB 57 32 03 FB 0C F7 ...
T34AC 001:176.421   CPU_WriteMem(388 bytes @ 0x20000400)
T34AC 001:178.372 - 2.021ms returns 0x184
T34AC 001:178.428 JLINK_HasError()
T34AC 001:178.444 JLINK_WriteReg(R0, 0x08001800)
T34AC 001:178.468 - 0.023ms returns 0
T34AC 001:178.479 JLINK_WriteReg(R1, 0x00000400)
T34AC 001:178.513 - 0.034ms returns 0
T34AC 001:178.523 JLINK_WriteReg(R2, 0x20000184)
T34AC 001:178.540 - 0.016ms returns 0
